# MHz S MA R 50
250    0.936152 -37.8087
251    0.934952 -38.3857
252    0.933648 -38.9883
253    0.932211 -39.6178
254    0.930606 -40.2763
255    0.928793 -40.9653
256    0.926727 -41.6864
257    0.924352 -42.4409
258    0.921608 -43.2299
259    0.918426 -44.0541
260    0.914734 -44.9134
261    0.910452 -45.8069
262    0.905498 -46.7329
263    0.899792 -47.6891
264    0.893258 -48.6707
265    0.88583  -49.6728
266    0.877458 -50.6885
267    0.86812  -51.7093
268    0.857817 -52.7256
269    0.846589 -53.7273
270    0.834513 -54.7037
271    0.821703 -55.6442
272    0.808308 -56.5394
273    0.794509 -57.3816
274    0.780499 -58.1655
275    0.766481 -58.8889
276    0.752652 -59.5527
277    0.73919  -60.1611
278    0.726246 -60.7216
279    0.713939 -61.2442
280    0.702354 -61.7413
281    0.691538 -62.2263
282    0.681505 -62.7139
283    0.672242 -63.2188
284    0.663709 -63.7556
285    0.655852 -64.3385
286    0.648598 -64.9809
287    0.641872 -65.6957
288    0.635588 -66.495 
289    0.629658 -67.3906
290    0.623995 -68.3939
291    0.61851  -69.5163
292    0.613119 -70.7693
293    0.607735 -72.165 
294    0.602275 -73.7164
295    0.596655 -75.4374
296    0.590794 -77.3434
297    0.584606 -79.4515
298    0.578012 -81.781 
299    0.570928 -84.3535
300    0.563271 -87.1937
301    0.554963 -90.3294
302    0.545927 -93.7924
303    0.536097 -97.6182
304    0.525421 -101.847
305    0.513869 -106.525
306    0.501448 -111.7  
307    0.488214 -117.426
308    0.474296 -123.76 
309    0.459911 -130.758
310    0.445387 -138.47 
311    0.43118  -146.933
312    0.417861 -156.16 
313    0.406095 -166.124
314    0.396566 -176.744
315    0.389872 172.1217
316    0.386408 160.6724
317    0.386255 149.1434
318    0.389145 137.77  
319    0.394491 126.7533
320    0.401482 116.2348
321    0.409198 106.2899
322    0.416702 96.93348
323    0.423092 88.13156
324    0.427493 79.81289
325    0.429017 71.87523
326    0.426664 64.1861 
327    0.419175 56.5745 
328    0.404781 48.80886
329    0.380812 40.55064
330    0.343032 31.24475
331    0.284564 19.8071 
332    0.194902 3.167337
333    0.070627 -44.8231
334    0.165803 -175.498
335    0.400871 150.8115
336    0.602636 125.5233
337    0.721351 105.6698
338    0.77523  91.00919
339    0.795714 80.25297
340    0.801535 72.15007
341    0.801324 65.83102
342    0.798796 60.74065
343    0.795537 56.52546
344    0.792215 52.95527
345    0.7891   49.87537
346    0.786284 47.17838
347    0.783784 44.78755
348    0.781581 42.64687
349    0.779647 40.71362
350    0.777952 38.95529
